#Digilent WaveForms Impedance Analyzer
#Device Name: Discovery2
#Serial Number: SN:210321AA21BA
#Date Time: 2023-11-25 16:30:21.994
#Trace: Trace
#Start: 500000 Hz
#Stop: 5e+06 Hz
#Steps: 501
#Resistor: 1000 ?
#Average: 1
#ProbeResistance: 1.04e+06 ?
#ProbeCapacitance: 4.3e-11 F
#Compensation: Open Short
#Wavegen: Wavegen1
#Amplitude: 5 V
#Offset: 0 V
#Amplification: 1 X
#Settle: 0.01 s
#MinPeriods: 16
#Scale: Logarithmic
#Channel: Channel 1
#Range: 60.1568 V
#Offset: 0.000698911 V
#Attenuation: 1 X
#Channel: Channel 2
#Range: 60.9044 V
#Offset: 0.00197368 V
#Attenuation: 1 X

Frequency (Hz)	Trace Rs (?)	Trace Xs (?)
500000	245.586	-992.655
502308	236.942	-969.854
504626	231.569	-961.996
506956	222.787	-945.541
509296	213.632	-937.111
511646	215.524	-921.343
514008	212.47	-914.631
516381	215.444	-903.951
518764	216.168	-904.659
521159	227.011	-900.727
523564	214.93	-903.329
525981	222.276	-917.167
528409	202.77	-914.056
530848	203.459	-927.702
533298	190.198	-908.986
535760	181.178	-925.008
538233	190.009	-906.1
540717	168.776	-929.187
543213	176.678	-929.181
545720	129.459	-927.236
548239	129.379	-937.535
550770	98.0965	-908.926
553312	82.7259	-910.515
555866	72.8202	-883.828
558432	59.882	-874.764
561009	54.4168	-853.995
563599	49.3847	-842.359
566200	49.1931	-823.661
568814	44.4653	-816.324
571439	49.0118	-799.362
574077	42.7218	-792.055
576727	49.2498	-780.823
579389	42.3378	-769.264
582063	48.186	-763.198
584750	46.5755	-752.406
587449	48.0144	-746.732
590160	45.6347	-736.577
592884	48.4575	-734.291
595621	49.023	-720.202
598370	45.881	-718.202
601132	51.9773	-707.309
603907	46.7016	-700.992
606694	52.4929	-700.489
609495	49.0505	-686.826
612308	46.0109	-683.692
615134	49.1091	-671.845
617974	49.0654	-665.62
620826	54.2631	-661.464
623692	53.6427	-652.269
626571	52.4469	-645.72
629463	53.096	-636.116
632368	57.166	-627.717
635287	60.9434	-617.115
638219	64.4903	-613.488
641165	70.7405	-606.935
644125	68.8681	-595.547
647098	76.4149	-593.318
650085	91.8574	-579.686
653085	93.7975	-574.626
656100	109.439	-582.994
659128	115.036	-575.493
662171	120.132	-574.559
665227	136.527	-571.79
668298	137.606	-575.603
671382	156.079	-588.768
674481	179.846	-585.763
677595	170.94	-608.709
680722	166.829	-639.956
683864	172.575	-634.258
687021	148.825	-653.092
690192	131.487	-683.893
693378	127.873	-665.062
696578	91.3224	-666.584
699794	76.9736	-668.792
703024	78.6196	-644.639
706269	60.1647	-638.822
709529	52.3966	-638.985
712804	60.3618	-619.205
716094	45.185	-610.224
719399	42.0972	-611.803
722720	50.6232	-597.522
726056	41.2753	-590.284
729407	35.7981	-588.801
732774	46.4743	-574.81
736156	35.0205	-572.075
739554	30.1485	-568.914
742968	39.5514	-574.133
746397	29.6362	-551.175
749842	25.7737	-547.87
753304	24.9349	-547.64
756781	31.8372	-527.46
760274	24.5595	-525.93
763783	23.4939	-524.304
767308	33.4958	-525.779
770850	26.8539	-505.462
774408	25.2454	-503.156
777983	25.7271	-502.244
781574	44.022	-490.558
785181	26.4066	-487.233
788806	25.9812	-486.288
792447	27.3539	-488.15
796104	46.0342	-463.603
799779	23.6419	-463.5
803471	24.3912	-463.689
807179	26.9077	-465.209
810905	52.9993	-456.465
814648	26.4261	-440.89
818408	22.696	-443.13
822186	21.7414	-443.172
825981	33.1062	-448.5
829793	30.8421	-410.744
833624	22.1029	-413.587
837471	22.633	-413.676
841337	26.0744	-414.57
845220	53.2322	-413.715
849122	35.3359	-382.29
853041	29.173	-385.961
856979	27.784	-388.647
860934	30.4104	-391.712
864908	47.0486	-395.61
868900	43.5506	-354.046
872911	29.9404	-354.134
876940	26.5222	-353.711
880988	27.1326	-353.606
885054	33.1496	-355.79
889140	61.5987	-346.364
893244	48.8113	-308.532
897367	39.5047	-306.556
901509	39.7617	-304.356
905670	42.2658	-303.146
909850	50.6012	-306.888
914050	69.3993	-312.392
918269	99.335	-286.255
922508	87.1517	-263.325
926766	82.9969	-266.025
931044	82.7015	-274.359
935341	80.4796	-282.914
939658	71.8249	-290.996
943996	64.404	-293.28
948353	73.0868	-289.437
952730	96.234	-264.063
957128	84.3926	-220.197
961546	67.6596	-204.833
965984	56.9323	-194.759
970443	53.1988	-186.28
974922	54.8004	-175.607
979422	62.478	-167.507
983943	75.1623	-160.516
988485	86.8365	-165.154
993047	90.5228	-162.881
997631	98.9899	-152.531
1.00224e+06	113.797	-131.595
1.00686e+06	138.032	-105.096
1.01151e+06	166.358	-71.7354
1.01618e+06	202.237	-29.5019
1.02087e+06	234.94	14.6813
1.02558e+06	272.747	61.1906
1.03031e+06	299.96	103.667
1.03507e+06	341.553	137.739
1.03985e+06	379.636	164.725
1.04465e+06	403.703	203.46
1.04947e+06	445.228	276.612
1.05431e+06	574.913	348.946
1.05918e+06	756.849	345.713
1.06407e+06	909.901	256.312
1.06898e+06	1036.08	164.882
1.07392e+06	1149.04	24.6453
1.07887e+06	1198.55	-127.139
1.08385e+06	1311.36	-286.842
1.08885e+06	1328.01	-604.695
1.09388e+06	1135.39	-866.617
1.09893e+06	883.207	-983.881
1.104e+06	672.749	-965.519
1.1091e+06	546.424	-928.874
1.11422e+06	421.358	-883.077
1.11936e+06	331.277	-794.923
1.12453e+06	291.078	-700.781
1.12972e+06	303.22	-609.759
1.13493e+06	357.442	-555.29
1.14017e+06	408.722	-589.272
1.14543e+06	395.65	-628.24
1.15072e+06	352.404	-630.178
1.15603e+06	345.566	-604.015
1.16137e+06	354.154	-621.124
1.16673e+06	319.549	-636.463
1.17211e+06	280.134	-619.666
1.17752e+06	266.043	-590.067
1.18296e+06	253.5	-566.507
1.18842e+06	244.664	-525.919
1.19391e+06	278.698	-451.808
1.19942e+06	393.594	-489.465
1.20495e+06	386.336	-560.721
1.21051e+06	339.186	-580.219
1.2161e+06	346.49	-541.668
1.22172e+06	398.764	-553.125
1.22735e+06	427.747	-614.777
1.23302e+06	424.526	-669.642
1.23871e+06	335.905	-797.511
1.24443e+06	271.751	-739.726
1.25017e+06	241.994	-747.54
1.25594e+06	194.534	-734.71
1.26174e+06	162.303	-703.89
1.26756e+06	190.282	-687.21
1.27342e+06	131.745	-688.71
1.27929e+06	119.488	-667.321
1.2852e+06	112.67	-650.973
1.29113e+06	112.839	-640.295
1.29709e+06	116.244	-649.001
1.30308e+06	69.5874	-638.676
1.30909e+06	58.0677	-615.844
1.31513e+06	54.7415	-596.233
1.3212e+06	54.9967	-580.869
1.3273e+06	39.7952	-580.829
1.33343e+06	36.52	-560.647
1.33958e+06	36.2873	-544.949
1.34577e+06	39.0699	-531.408
1.35198e+06	32.2204	-528.979
1.35822e+06	33.9375	-512.886
1.36449e+06	36.3764	-501.841
1.37079e+06	55.9534	-492.333
1.37711e+06	47.3345	-491.614
1.38347e+06	51.3241	-491.709
1.38986e+06	49.3868	-488.622
1.39627e+06	40.2969	-494.073
1.40272e+06	35.8342	-483.886
1.40919e+06	35.3738	-474.619
1.4157e+06	34.6795	-474.814
1.42223e+06	32.8344	-469.135
1.4288e+06	29.3426	-463.542
1.43539e+06	24.5976	-461.873
1.44202e+06	21.925	-452.167
1.44867e+06	20.6704	-443.031
1.45536e+06	18.7468	-439.733
1.46208e+06	17.1423	-430.939
1.46882e+06	20.1195	-419.542
1.4756e+06	17.143	-416.658
1.48242e+06	17.8804	-407.961
1.48926e+06	20.7175	-404.414
1.49613e+06	22.6357	-395.332
1.50304e+06	26.5293	-386.061
1.50998e+06	28.1752	-383.9
1.51695e+06	32.2052	-376.245
1.52395e+06	36.3441	-373.905
1.53098e+06	40.9634	-367.127
1.53805e+06	48.6026	-362.388
1.54515e+06	56.405	-358.381
1.55228e+06	67.229	-357.443
1.55944e+06	75.3279	-365.742
1.56664e+06	77.6337	-373.095
1.57387e+06	77.3789	-382.169
1.58114e+06	72.491	-384.181
1.58844e+06	69.8789	-389.118
1.59577e+06	65.5258	-387.088
1.60313e+06	63.4799	-390.191
1.61053e+06	59.3185	-389.766
1.61797e+06	52.8794	-390.625
1.62544e+06	48.4245	-384.514
1.63294e+06	46.3855	-379.885
1.64048e+06	49.558	-373.73
1.64805e+06	50.9791	-373.524
1.65566e+06	54.5042	-372.203
1.6633e+06	55.0675	-376.033
1.67098e+06	55.2352	-381.957
1.67869e+06	47.2222	-385.241
1.68644e+06	38.7634	-385.44
1.69422e+06	32.2751	-379.741
1.70204e+06	28.415	-375.544
1.7099e+06	26.4314	-371.434
1.71779e+06	22.5438	-367.548
1.72572e+06	20.8383	-363.023
1.73368e+06	19.2128	-358.101
1.74169e+06	16.7921	-354.504
1.74973e+06	16.1121	-348.421
1.7578e+06	15.4717	-342.975
1.76592e+06	15.7165	-338.663
1.77407e+06	18.392	-332.868
1.78226e+06	21.448	-329.029
1.79048e+06	25.6662	-327.593
1.79875e+06	27.0581	-329.338
1.80705e+06	25.0595	-331.046
1.81539e+06	22.3095	-329.416
1.82377e+06	21.6873	-325.013
1.83219e+06	20.7513	-322.356
1.84064e+06	21.5392	-318.901
1.84914e+06	24.147	-317.7
1.85768e+06	24.4314	-316.46
1.86625e+06	22.061	-316.939
1.87487e+06	20.1483	-313.66
1.88352e+06	20.7214	-309.699
1.89221e+06	22.7856	-306.047
1.90095e+06	25.0172	-305.25
1.90972e+06	25.9233	-306.063
1.91854e+06	25.4827	-306.116
1.92739e+06	25.7807	-304.128
1.93629e+06	24.6925	-303.734
1.94523e+06	25.0241	-304.303
1.9542e+06	21.8167	-305.309
1.96322e+06	18.5948	-304.759
1.97229e+06	16.5984	-301.817
1.98139e+06	16.3736	-296.225
1.99054e+06	13.3927	-292.853
1.99972e+06	12.4985	-289.628
2.00895e+06	13.0011	-286.128
2.01823e+06	14.6485	-281.967
2.02754e+06	16.4658	-279.599
2.0369e+06	18.4507	-278.849
2.0463e+06	19.9821	-278.314
2.05575e+06	22.1262	-277.766
2.06524e+06	23.7245	-277.936
2.07477e+06	22.2363	-276.562
2.08435e+06	19.5442	-274.341
2.09397e+06	18.63	-271.734
2.10363e+06	18.4996	-269.173
2.11334e+06	19.8231	-268.024
2.1231e+06	20.4022	-267.881
2.1329e+06	18.6423	-267.066
2.14274e+06	18.6662	-263.956
2.15263e+06	20.9289	-263.344
2.16257e+06	21.2185	-266.109
2.17255e+06	16.957	-265.634
2.18258e+06	13.7384	-262.71
2.19265e+06	12.7939	-258.11
2.20277e+06	13.2044	-253.693
2.21294e+06	14.6959	-250.113
2.22316e+06	16.9203	-246.585
2.23342e+06	21.6713	-244.168
2.24373e+06	25.5862	-246.693
2.25408e+06	23.8921	-248.75
2.26449e+06	25.4268	-246.438
2.27494e+06	25.865	-248.688
2.28544e+06	24.3476	-248.544
2.29599e+06	24.3917	-247.979
2.30659e+06	23.4757	-247.115
2.31723e+06	24.0684	-246.496
2.32793e+06	24.3419	-246.607
2.33868e+06	23.4091	-247.184
2.34947e+06	22.4648	-247.436
2.36032e+06	20.2156	-247.223
2.37121e+06	18.45	-246.123
2.38215e+06	16.9257	-244.663
2.39315e+06	15.1332	-243.304
2.4042e+06	13.2161	-240.803
2.41529e+06	12.9549	-237.468
2.42644e+06	13.6176	-234.965
2.43764e+06	14.5324	-232.271
2.44889e+06	16.5628	-231.223
2.4602e+06	18.0588	-232.031
2.47155e+06	16.482	-233.324
2.48296e+06	14.4388	-232.925
2.49442e+06	12.6532	-231.029
2.50594e+06	10.7089	-228.76
2.5175e+06	10.6033	-226.413
2.52912e+06	11.0742	-224.171
2.5408e+06	10.9974	-222.783
2.55252e+06	10.8287	-221.067
2.56431e+06	10.4519	-219.057
2.57614e+06	11.6673	-216.986
2.58803e+06	12.6744	-216.427
2.59998e+06	12.5278	-216.202
2.61198e+06	11.9574	-214.712
2.62404e+06	12.0969	-213.582
2.63615e+06	12.1396	-212.055
2.64832e+06	11.7594	-211.6
2.66054e+06	11.5201	-209.895
2.67282e+06	11.5285	-209.143
2.68516e+06	11.0899	-207.141
2.69755e+06	11.4738	-205.443
2.71e+06	12.2832	-204.226
2.72251e+06	13.4807	-203.76
2.73508e+06	13.3409	-203.807
2.7477e+06	12.7767	-203.943
2.76039e+06	12.2343	-202.977
2.77313e+06	11.0049	-202.275
2.78593e+06	10.1583	-201.208
2.79879e+06	9.16518	-199.575
2.81171e+06	8.18621	-198.282
2.82468e+06	7.97103	-195.986
2.83772e+06	7.40139	-193.802
2.85082e+06	7.50986	-192.05
2.86398e+06	8.14103	-189.8
2.8772e+06	8.47345	-188.579
2.89048e+06	8.5042	-187.873
2.90382e+06	9.0426	-186.173
2.91723e+06	8.19004	-184.508
2.93069e+06	8.40949	-183.141
2.94422e+06	8.41144	-181.917
2.95781e+06	8.62503	-179.343
2.97146e+06	8.3961	-177.212
2.98518e+06	8.77036	-175.672
2.99896e+06	9.57613	-174.686
3.0128e+06	10.9385	-173.578
3.0267e+06	10.6115	-169.831
3.04068e+06	10.1158	-167.287
3.05471e+06	9.738	-165.419
3.06881e+06	10.2179	-163.316
3.08298e+06	11.0111	-161.657
3.09721e+06	13.0071	-159.767
3.1115e+06	17.6108	-156.883
3.12586e+06	25.0023	-151.371
3.14029e+06	33.1969	-144.867
3.15479e+06	43.4464	-141.027
3.16935e+06	57.0144	-142.835
3.18398e+06	69.9287	-153.505
3.19867e+06	74.7803	-171.823
3.21344e+06	67.9194	-188.783
3.22827e+06	55.7927	-198.73
3.24317e+06	41.7232	-201.848
3.25814e+06	29.9824	-197.644
3.27318e+06	23.7392	-191.242
3.28829e+06	20.7535	-184.567
3.30347e+06	21.1641	-178.331
3.31872e+06	24.8908	-175.562
3.33403e+06	25.3381	-179.201
3.34942e+06	20.3254	-177.109
3.36488e+06	18.7453	-172.292
3.38041e+06	19.2602	-167.259
3.39602e+06	22.2976	-160.745
3.41169e+06	31.1928	-154.521
3.42744e+06	52.7111	-155.985
3.44326e+06	60.7883	-190.201
3.45915e+06	32.8214	-201.501
3.47512e+06	20.969	-193.031
3.49116e+06	18.5884	-186.675
3.50728e+06	15.1429	-186.345
3.52347e+06	12.1019	-182.372
3.53973e+06	11.3931	-179.088
3.55607e+06	10.8806	-178.712
3.57248e+06	8.69701	-175.916
3.58897e+06	7.50915	-173.317
3.60554e+06	6.87336	-172.21
3.62218e+06	5.5898	-169.09
3.6389e+06	6.23464	-165.74
3.6557e+06	5.46465	-165.028
3.67257e+06	5.95537	-162.788
3.68952e+06	6.58245	-161.976
3.70655e+06	6.91122	-160.285
3.72366e+06	7.4421	-160.013
3.74085e+06	6.98536	-158.352
3.75811e+06	7.65042	-158.05
3.77546e+06	7.31445	-156.441
3.79289e+06	7.78984	-156.005
3.8104e+06	7.44344	-154.818
3.82798e+06	7.46887	-154.378
3.84565e+06	7.86931	-153.231
3.8634e+06	7.27851	-153.234
3.88124e+06	7.3547	-152.88
3.89915e+06	6.45484	-151.457
3.91715e+06	6.10961	-151.005
3.93523e+06	6.25205	-150.173
3.95339e+06	5.28519	-148.75
3.97164e+06	4.66636	-148.056
3.98997e+06	5.01989	-147.046
4.00839e+06	4.8761	-144.828
4.02689e+06	4.76359	-143.451
4.04548e+06	4.41711	-142.849
4.06415e+06	5.19244	-141.898
4.08291e+06	6.20329	-140.641
4.10176e+06	6.90375	-139.259
4.12069e+06	7.42027	-138.716
4.13971e+06	7.57352	-138.436
4.15882e+06	7.29802	-137.94
4.17802e+06	7.45109	-137.987
4.1973e+06	7.57806	-137.828
4.21667e+06	7.45315	-137.729
4.23614e+06	7.27121	-137.703
4.25569e+06	7.17184	-137.229
4.27533e+06	7.04279	-136.614
4.29507e+06	7.04937	-136.474
4.31489e+06	6.42056	-136.366
4.33481e+06	5.73461	-135.544
4.35482e+06	5.16426	-134.849
4.37492e+06	4.73551	-134.204
4.39511e+06	4.14503	-133.349
4.4154e+06	3.40881	-132.314
4.43578e+06	3.42057	-131.193
4.45625e+06	3.09859	-129.968
4.47682e+06	3.11948	-128.899
4.49749e+06	3.25786	-127.669
4.51825e+06	3.50118	-126.724
4.5391e+06	3.95237	-125.827
4.56005e+06	4.26247	-124.916
4.5811e+06	5.10388	-124.249
4.60225e+06	5.23972	-124.62
4.62349e+06	4.97741	-124.026
4.64483e+06	4.96479	-123.76
4.66627e+06	4.70122	-123.417
4.68781e+06	4.63818	-122.995
4.70945e+06	4.18032	-122.47
4.73119e+06	3.89116	-121.987
4.75302e+06	3.37507	-121.524
4.77496e+06	3.00586	-120.651
4.797e+06	2.36487	-119.578
4.81915e+06	2.41221	-118.492
4.84139e+06	2.40299	-117.429
4.86374e+06	2.48667	-116.434
4.88619e+06	2.37525	-115.326
4.90874e+06	2.6424	-114.322
4.9314e+06	3.12578	-113.333
4.95416e+06	3.39112	-112.843
4.97703e+06	4.08476	-112.209
5e+06	4.60414	-111.325
