#Digilent WaveForms Impedance Analyzer
#Device Name: Discovery2
#Serial Number: SN:210321AA21BA
#Date Time: 2023-10-14 17:37:02.336
#Trace: Trace
#Start: 500000 Hz
#Stop: 5e+06 Hz
#Steps: 501
#Resistor: 100 ?
#Average: 1
#ProbeResistance: 1.04e+06 ?
#ProbeCapacitance: 4.3e-11 F
#Compensation: Open Short
#Wavegen: Wavegen1
#Amplitude: 2 V
#Offset: 0 V
#Amplification: 1 X
#Settle: 0.01 s
#MinPeriods: 16
#Scale: Logarithmic
#Channel: Channel 1
#Range: 5.48031 V
#Offset: -6.64227e-05 V
#Attenuation: 1 X
#Channel: Channel 2
#Range: 5.54429 V
#Offset: 8.32559e-06 V
#Attenuation: 1 X

Frequency (Hz)	Trace ? (°)	Trace |Z| (?)	Trace Rs (?)	Trace Xs (?)
500000	-73.458	1045.73	297.739	-1002.45
502308	-74.1826	1032.06	281.31	-992.976
504626	-75.0548	1020.11	263.082	-985.607
506956	-75.3364	998.421	252.744	-965.901
509296	-75.6923	992.112	245.179	-961.339
511646	-75.9986	979.012	236.868	-949.925
514008	-75.9465	970.676	235.707	-941.623
516381	-76.0143	963.159	232.776	-934.607
518764	-76.3834	957.279	225.366	-930.373
521159	-76.6629	949.776	219.095	-924.16
523564	-76.7158	941.793	216.407	-916.593
525981	-76.6409	935.476	216.146	-910.163
528409	-76.1982	934.106	222.844	-907.135
530848	-75.9959	936.618	226.653	-908.78
533298	-76.1913	952.581	227.362	-925.05
535760	-77.1787	955.757	212.093	-931.927
538233	-78.1068	951.725	196.138	-931.295
540717	-78.6129	953.715	188.298	-934.942
543213	-79.1466	952.779	179.405	-935.736
545720	-80.5141	950.979	156.727	-937.976
548239	-81.4092	946.409	141.371	-935.791
550770	-82.5652	929.219	120.239	-921.407
553312	-83.4322	918.209	105.024	-912.183
555866	-83.8104	900.141	97.0524	-894.894
558432	-84.4087	886.024	86.3269	-881.809
561009	-84.6681	874.712	81.2825	-870.927
563599	-84.9129	858.516	76.1251	-855.134
566200	-85.1724	846.355	71.2267	-843.352
568814	-85.1573	834.357	70.4371	-831.378
571439	-85.2593	821.383	67.8848	-818.573
574077	-85.2096	812.32	67.8379	-809.482
576727	-85.1107	800.294	68.2094	-797.382
579389	-85.0182	790.627	68.6576	-787.64
582063	-84.6686	782.343	72.6919	-778.959
584750	-84.3944	776.422	75.8408	-772.709
587449	-84.1745	774.368	78.5978	-770.369
590160	-84.1215	772.206	79.0887	-768.145
592884	-84.304	771.328	76.5545	-767.519
595621	-84.6687	768.045	71.3625	-764.722
598370	-84.9645	763.891	67.0496	-760.942
601132	-85.4652	756.499	59.8126	-754.131
603907	-85.8963	748.298	53.5497	-746.379
606694	-86.1299	738.792	49.8639	-737.107
609495	-86.3526	729.046	46.3788	-727.569
612308	-86.3934	718.985	45.2285	-717.561
615134	-86.4923	709.138	43.3867	-707.81
617974	-86.4663	700.578	43.1805	-699.246
620826	-86.4141	690.842	43.2085	-689.49
623692	-86.4425	681.972	42.3169	-680.657
626571	-86.2392	672.473	44.1087	-671.024
629463	-86.1226	663.18	44.8458	-661.662
632368	-85.8774	655.224	47.1049	-653.528
635287	-85.4637	646.231	51.1107	-644.207
638219	-85.1651	639.757	53.9219	-637.481
641165	-84.8065	633.925	57.3823	-631.323
644125	-84.5555	626.653	59.4575	-623.826
647098	-84.3612	620.355	60.9539	-617.353
650085	-83.9465	614.462	64.7998	-611.035
653085	-83.7496	606.095	65.9876	-602.492
656100	-83.245	597.54	70.2852	-593.392
659128	-82.595	586.649	75.6083	-581.756
662171	-81.7173	578.151	83.2872	-572.12
665227	-80.3269	570.882	95.9236	-562.766
668298	-78.7537	563.002	109.801	-552.191
671382	-77.2015	565.102	125.183	-551.062
674481	-74.8499	568.391	148.549	-548.636
677595	-72.4987	581.973	175.015	-555.034
680722	-71.0734	613.888	199.119	-580.698
683864	-70.9017	646.694	211.591	-611.099
687021	-72.3881	670.658	202.919	-639.223
690192	-74.907	700.95	182.518	-676.77
693378	-76.5463	714.516	166.239	-694.908
696578	-78.6548	710.582	139.786	-696.697
699794	-81.6476	702.927	102.107	-695.471
703024	-83.1345	692.418	82.7706	-687.453
706269	-84.0728	679.509	70.1697	-675.876
709529	-85.1617	660.692	55.7253	-658.338
712804	-85.6052	648.993	49.7312	-647.085
716094	-85.9014	636.497	45.4919	-634.869
719399	-86.1705	623.711	41.656	-622.319
722720	-86.2342	614.931	40.3874	-613.603
726056	-86.2863	606.636	39.2928	-605.362
729407	-86.3247	596.69	38.2491	-595.463
732774	-86.3347	591.472	37.8119	-590.262
736156	-86.2488	585.504	38.3055	-584.249
739554	-86.186	580.103	38.5867	-578.818
742968	-86.5056	575.194	35.0583	-574.124
746397	-86.7994	569.704	31.8072	-568.815
749842	-86.8939	562.027	30.454	-561.201
753304	-87.0396	554.732	28.6499	-553.991
756781	-87.082	548.098	27.9017	-547.387
760274	-87.104	542.222	27.395	-541.529
763783	-87.0888	535.021	27.1725	-534.33
767308	-87.1087	529.132	26.6899	-528.458
770850	-87.0348	522.131	27.0091	-521.432
774408	-86.8656	516.563	28.245	-515.791
777983	-86.7448	509.84	28.9502	-509.017
781574	-86.4987	505.114	30.8483	-504.171
785181	-86.3847	500.986	31.5903	-499.989
788806	-86.3291	497.258	31.837	-496.238
792447	-86.4952	493.252	30.1534	-492.329
796104	-86.531	488.169	29.5384	-487.275
799779	-86.449	483.962	29.9748	-483.033
803471	-86.2893	477.505	30.9032	-476.504
807179	-86.2339	471.967	31.0005	-470.948
810905	-86.0346	467.199	32.3085	-466.081
814648	-86.2023	464.479	30.7645	-463.459
818408	-86.3094	461.296	29.6931	-460.34
822186	-86.2775	455.358	29.5635	-454.397
825981	-86.1788	449.386	29.9485	-448.387
829793	-86.305	442.453	28.5141	-441.533
833624	-86.2872	438.066	28.3668	-437.147
837471	-86.2026	433.245	28.6935	-432.294
841337	-85.9514	427.982	30.2165	-426.914
845220	-85.7165	421.339	31.4703	-420.162
849122	-85.8775	415.548	29.8732	-414.472
853041	-85.8529	410.587	29.6926	-409.512
856979	-85.6529	405.984	30.7731	-404.816
860934	-85.3174	400.989	32.7353	-399.651
864908	-84.7203	395.643	36.406	-393.964
868900	-84.6214	389.973	36.5545	-388.256
872911	-84.6446	387.162	36.1352	-385.472
876940	-84.572	384.316	36.3542	-382.593
880988	-84.681	378.61	35.0975	-376.979
885054	-84.7961	372.497	33.7859	-370.962
889140	-84.6175	364.181	34.1618	-362.575
893244	-84.7314	355.292	32.6246	-353.791
897367	-84.7076	348.265	32.1232	-346.781
901509	-84.257	341.437	34.1666	-339.724
905670	-83.3595	334.608	38.6937	-332.363
909850	-82.322	327.636	43.7738	-324.698
914050	-80.9803	321.184	50.3532	-317.213
918269	-79.8244	313.842	55.445	-308.906
922508	-78.9039	311.625	59.9739	-305.799
926766	-78.2828	311.676	63.2956	-305.182
931044	-77.7862	312.084	66.0245	-305.02
935341	-77.1942	314.208	69.6432	-306.393
939658	-76.672	316.459	72.9519	-307.936
943996	-77.1754	318.958	70.7981	-311.002
948353	-78.2658	314.415	63.9432	-307.845
952730	-79.0372	300.484	57.1433	-295.001
957128	-79.9189	287.258	50.282	-282.823
961546	-80.2857	276.479	46.6519	-272.515
965984	-80.2385	265.69	45.0469	-261.843
970443	-79.9158	255.895	44.8059	-251.941
974922	-79.5827	247.385	44.7309	-243.307
979422	-79.5397	239.088	43.4073	-235.115
983943	-79.6976	229.74	41.0872	-226.036
988485	-79.2593	220.17	41.0318	-216.313
993047	-77.5966	211.503	45.4293	-206.567
997631	-74.3091	200.059	54.1055	-192.603
1.00224e+06	-70.6596	187.296	62.0286	-176.726
1.00686e+06	-66.11	174.362	70.6134	-159.423
1.01151e+06	-61.4444	161.377	77.14	-141.746
1.01618e+06	-55.5508	150.069	84.8906	-123.751
1.02087e+06	-48.6412	138.248	91.3505	-103.767
1.02558e+06	-40.0013	128.689	98.5799	-82.7221
1.03031e+06	-29.7796	123.893	107.532	-61.5333
1.03507e+06	-18.168	126.601	120.289	-39.4748
1.03985e+06	-7.29686	138.453	137.331	-17.5849
1.04465e+06	1.13605	148.498	148.469	2.9442
1.04947e+06	12.373	169.936	165.989	36.413
1.05431e+06	18.9581	217.204	205.423	70.5645
1.05918e+06	17.0514	277.966	265.748	81.5078
1.06407e+06	10.8603	320.573	314.832	60.401
1.06898e+06	3.85487	335.761	335.001	22.573
1.07392e+06	0.117523	307.42	307.419	0.630565
1.07887e+06	6.7508	281.607	279.655	33.1033
1.08385e+06	15.9443	289.304	278.174	79.4728
1.08885e+06	25.5915	317.319	286.189	137.067
1.09388e+06	34.6279	368.994	303.63	209.678
1.09893e+06	42.8526	467.823	342.964	318.173
1.104e+06	46.446	630.725	434.594	457.103
1.1091e+06	45.1609	878.161	619.208	622.695
1.11422e+06	37.6018	1232.23	976.264	751.873
1.11936e+06	22.3913	1658.05	1533.04	631.601
1.12453e+06	1.91794	1910.3	1909.23	63.9344
1.12972e+06	-16.1036	1914.52	1839.39	-531.039
1.13493e+06	-30.1703	1760.68	1522.17	-884.869
1.14017e+06	-37.4866	1625.57	1289.88	-989.282
1.14543e+06	-45.157	1574.74	1110.46	-1116.56
1.15072e+06	-55.0497	1483.15	849.649	-1215.67
1.15603e+06	-61.7809	1306.94	617.978	-1151.6
1.16137e+06	-65.4261	1178.64	490.156	-1071.89
1.16673e+06	-68.2749	1071.53	396.631	-995.419
1.17211e+06	-70.2143	982.838	332.694	-924.816
1.17752e+06	-71.2743	910.183	292.203	-862.004
1.18296e+06	-72.1954	850.59	260.086	-809.851
1.18842e+06	-72.4833	798.532	240.345	-761.504
1.19391e+06	-72.548	752.192	225.588	-717.568
1.19942e+06	-72.2802	710.837	216.352	-677.113
1.20495e+06	-71.6237	668.655	210.797	-634.558
1.21051e+06	-69.3496	627.47	221.287	-587.155
1.2161e+06	-65.3652	612.024	255.112	-556.319
1.22172e+06	-62.6811	611.3	280.552	-543.119
1.22735e+06	-59.2457	620.566	317.331	-533.295
1.23302e+06	-56.6741	654.655	359.667	-547.003
1.23871e+06	-55.3893	695.846	395.239	-572.702
1.24443e+06	-57.2594	769.661	416.26	-647.383
1.25017e+06	-61.9948	820.15	385.102	-724.114
1.25594e+06	-67.8342	815.153	307.547	-754.91
1.26174e+06	-71.2458	783.31	251.841	-741.722
1.26756e+06	-73.178	753.414	218.038	-721.174
1.27342e+06	-74.644	728.807	192.999	-702.788
1.27929e+06	-74.8059	710.329	186.17	-685.499
1.2852e+06	-75.3513	702.995	177.782	-680.144
1.29113e+06	-76.1235	690.223	165.536	-670.079
1.29709e+06	-76.6456	692.042	159.843	-673.33
1.30308e+06	-78.5658	693.161	137.414	-679.404
1.30909e+06	-80.7249	679.44	109.508	-670.557
1.31513e+06	-82.3271	657.692	87.8133	-651.803
1.3212e+06	-83.212	636.499	75.2317	-632.037
1.3273e+06	-84.0499	621.294	64.4049	-617.947
1.33343e+06	-84.5407	599.047	56.9928	-596.329
1.33958e+06	-84.7278	582.158	53.4928	-579.695
1.34577e+06	-84.7548	567.766	51.904	-565.388
1.35198e+06	-85.0087	554.902	48.279	-552.797
1.35822e+06	-84.6063	538.317	50.601	-535.934
1.36449e+06	-83.8211	528.285	56.8608	-525.216
1.37079e+06	-83.1233	523.989	62.7388	-520.22
1.37711e+06	-82.8035	522.124	65.4081	-518.011
1.38347e+06	-82.9823	522.179	63.7981	-518.267
1.38986e+06	-83.4331	518.933	59.3467	-515.528
1.39627e+06	-84.0492	514.208	53.3106	-511.437
1.40272e+06	-84.4751	505.749	48.6929	-503.4
1.40919e+06	-84.5022	497.16	47.6315	-494.873
1.4157e+06	-84.4386	491.765	47.6584	-489.451
1.42223e+06	-84.3601	487.587	47.9185	-485.227
1.4288e+06	-84.6591	485.908	45.2287	-483.798
1.43539e+06	-85.2367	481.463	39.9808	-479.8
1.44202e+06	-85.7588	474.405	35.0849	-473.106
1.44867e+06	-86.1013	467.088	31.7582	-466.007
1.45536e+06	-86.414	459.716	28.7538	-458.816
1.46208e+06	-86.5706	451.791	27.0257	-450.982
1.46882e+06	-86.6779	444.08	25.7343	-443.333
1.4756e+06	-86.7316	436.463	24.884	-435.753
1.48242e+06	-86.6644	428.989	24.9605	-428.262
1.48926e+06	-86.517	421.861	25.6292	-421.082
1.49613e+06	-86.3742	414.88	26.2368	-414.05
1.50304e+06	-86.0028	407.607	28.4135	-406.616
1.50998e+06	-85.5094	402.688	31.5286	-401.452
1.51695e+06	-85.2509	398.541	32.9961	-397.173
1.52395e+06	-85.066	393.822	33.8716	-392.362
1.53098e+06	-84.7982	387.855	35.1645	-386.257
1.53805e+06	-84.4061	381.125	37.1509	-379.31
1.54515e+06	-83.7976	373.933	40.4004	-371.744
1.55228e+06	-82.523	367.175	47.7798	-364.053
1.55944e+06	-80.8835	364.999	57.8312	-360.388
1.56664e+06	-79.174	367.556	69.0369	-361.014
1.57387e+06	-78.0846	376.811	77.7991	-368.692
1.58114e+06	-78.2444	386.426	78.7295	-378.32
1.58844e+06	-79.133	391.666	73.841	-384.642
1.59577e+06	-79.9336	391.115	68.3631	-385.094
1.60313e+06	-80.3696	389.184	65.1074	-383.7
1.61053e+06	-80.6759	387.558	62.7915	-382.437
1.61797e+06	-81.0786	386.012	59.8623	-381.342
1.62544e+06	-81.5581	381.554	56.0144	-377.42
1.63294e+06	-81.5672	375.239	55.0288	-371.182
1.64048e+06	-80.9028	370.735	58.6165	-366.071
1.64805e+06	-80.1889	369.038	62.884	-363.641
1.65566e+06	-79.2934	370.669	68.8625	-364.216
1.6633e+06	-78.8893	377.317	72.7111	-370.245
1.67098e+06	-79.4947	383.551	69.9315	-377.122
1.67869e+06	-80.37	384.617	64.3405	-379.197
1.68644e+06	-81.0064	384.57	60.1177	-379.842
1.69422e+06	-81.8048	384.004	54.7385	-380.083
1.70204e+06	-82.6013	380.028	48.9376	-376.864
1.7099e+06	-82.7936	375.521	47.1069	-372.555
1.71779e+06	-82.8031	373.822	46.832	-370.877
1.72572e+06	-83.0967	374.631	45.0284	-371.915
1.73368e+06	-84.0073	374.598	39.109	-372.55
1.74169e+06	-85.0312	370.352	32.0775	-368.96
1.74973e+06	-85.7112	363.306	27.1692	-362.289
1.7578e+06	-85.987	355.871	24.9049	-354.999
1.76592e+06	-85.9268	349.473	24.8235	-348.59
1.77407e+06	-85.6569	343.81	26.0362	-342.822
1.78226e+06	-85.3583	339.792	27.4976	-338.677
1.79048e+06	-85.074	336.144	28.8646	-334.902
1.79875e+06	-84.6287	332.812	31.1542	-331.351
1.80705e+06	-84.0403	331.203	34.3886	-329.413
1.81539e+06	-83.6462	331.991	36.7406	-329.951
1.82377e+06	-83.7493	332.803	36.2351	-330.825
1.83219e+06	-84.0322	331.874	34.5049	-330.076
1.84064e+06	-84.1004	330.327	33.9529	-328.578
1.84914e+06	-84.1472	329.354	33.5855	-327.637
1.85768e+06	-84.5088	328.712	31.4551	-327.204
1.86625e+06	-84.7676	326.066	29.7356	-324.707
1.87487e+06	-84.9276	324.046	28.6502	-322.777
1.88352e+06	-85.1933	321.496	26.9394	-320.365
1.89221e+06	-85.4704	318.248	25.1335	-317.254
1.90095e+06	-85.5248	314.022	24.5023	-313.065
1.90972e+06	-85.3767	310.781	25.0501	-309.77
1.91854e+06	-85.1647	308.415	25.9969	-307.317
1.92739e+06	-85.1039	305.759	26.0961	-304.644
1.93629e+06	-84.7838	302.94	27.5416	-301.685
1.94523e+06	-84.283	301.387	30.0228	-299.888
1.9542e+06	-83.9079	303.078	32.1649	-301.366
1.96322e+06	-84.2101	305.28	30.7969	-303.723
1.97229e+06	-84.8429	304.067	27.3318	-302.836
1.98139e+06	-85.3829	301.58	24.2763	-300.602
1.99054e+06	-85.6755	298.514	22.5097	-297.664
1.99972e+06	-85.87	295.267	21.2648	-294.5
2.00895e+06	-86.0829	290.9	19.8721	-290.22
2.01823e+06	-86.0625	286.55	19.6767	-285.873
2.02754e+06	-85.796	282.531	20.712	-281.771
2.0369e+06	-85.3279	278.822	22.7111	-277.895
2.0463e+06	-84.639	275.388	25.7296	-274.184
2.05575e+06	-83.6987	273.602	30.0297	-271.949
2.06524e+06	-82.7803	275.126	34.5764	-272.944
2.07477e+06	-82.5365	278.756	36.2088	-276.395
2.08435e+06	-82.8304	280.489	35.0069	-278.295
2.09397e+06	-83.0411	280.761	34.016	-278.692
2.10363e+06	-83.1898	281.463	33.3759	-279.477
2.11334e+06	-83.6195	282.686	31.4151	-280.935
2.1231e+06	-84.3671	282.207	27.6998	-280.844
2.1329e+06	-84.9944	279.875	24.4198	-278.807
2.14274e+06	-85.4529	276.897	21.9521	-276.025
2.15263e+06	-85.7934	273.62	20.0708	-272.883
2.16257e+06	-86.01	269.866	18.7778	-269.212
2.17255e+06	-86.0317	266.019	18.4096	-265.382
2.18258e+06	-85.7987	262.683	19.2443	-261.977
2.19265e+06	-85.6565	260.336	19.7168	-259.588
2.20277e+06	-85.515	257.378	20.1266	-256.59
2.21294e+06	-85.1346	254.663	21.5993	-253.745
2.22316e+06	-84.7199	252.727	23.2573	-251.655
2.23342e+06	-84.162	251.563	25.5881	-250.259
2.24373e+06	-83.8516	252.109	27.002	-250.658
2.25408e+06	-83.7771	251.844	27.2992	-250.36
2.26449e+06	-84.0322	251.613	26.1602	-250.25
2.27494e+06	-84.0754	248.65	25.6655	-247.321
2.28544e+06	-83.5106	246.532	27.863	-244.953
2.29599e+06	-82.9863	249.9	30.5143	-248.03
2.30659e+06	-84.0994	248.069	25.5022	-246.755
2.31723e+06	-83.9399	244.047	25.7643	-242.683
2.32793e+06	-83.4204	241.856	27.7126	-240.263
2.33868e+06	-82.8558	240.689	29.934	-238.82
2.34947e+06	-82.1374	240.729	32.9312	-238.466
2.36032e+06	-81.5012	243.082	35.925	-240.413
2.37121e+06	-81.4432	247.336	36.8009	-244.583
2.38215e+06	-82.4698	251.208	32.9203	-249.041
2.39315e+06	-83.6689	250.692	27.6447	-249.163
2.4042e+06	-84.5971	247.893	23.3414	-246.792
2.41529e+06	-85.1939	243.896	20.4347	-243.039
2.42644e+06	-85.3822	239.802	19.306	-239.024
2.43764e+06	-85.2712	236.085	19.4627	-235.282
2.44889e+06	-84.9245	233.258	20.6358	-232.343
2.4602e+06	-84.5603	231.118	21.9095	-230.077
2.47155e+06	-83.9821	229.807	24.093	-228.541
2.48296e+06	-83.5386	230.848	25.9783	-229.382
2.49442e+06	-83.8043	231.716	25.0078	-230.363
2.50594e+06	-84.104	230.729	23.7011	-229.509
2.5175e+06	-84.2398	229.213	23.0052	-228.056
2.52912e+06	-84.2114	227.584	22.9539	-226.424
2.5408e+06	-84.0329	226.85	23.5828	-225.62
2.55252e+06	-84.1257	226.778	23.2098	-225.587
2.56431e+06	-84.2986	225.761	22.428	-224.644
2.57614e+06	-84.3302	224.7	22.1994	-223.601
2.58803e+06	-84.3184	224.558	22.2311	-223.455
2.59998e+06	-84.7517	224.752	20.5585	-223.809
2.61198e+06	-85.3614	223.143	18.0458	-222.412
2.62404e+06	-85.6808	220.441	16.6019	-219.815
2.63615e+06	-85.8169	217.862	15.8916	-217.281
2.64832e+06	-85.8126	215.522	15.7371	-214.946
2.66054e+06	-85.7912	213.384	15.6606	-212.809
2.67282e+06	-85.6785	211.214	15.9156	-210.613
2.68516e+06	-85.5212	209.488	16.359	-208.848
2.69755e+06	-85.3676	207.659	16.771	-206.981
2.71e+06	-85.0955	205.913	17.6045	-205.159
2.72251e+06	-84.6603	204.822	19.0608	-203.933
2.73508e+06	-84.369	204.877	20.1027	-203.888
2.7477e+06	-84.3705	205.039	20.1134	-204.051
2.76039e+06	-84.5312	204.498	19.4895	-203.567
2.77313e+06	-84.6747	203.803	18.9149	-202.924
2.78593e+06	-84.8212	202.529	18.2811	-201.703
2.79879e+06	-84.9063	201.48	17.8883	-200.684
2.81171e+06	-84.9779	200.335	17.5373	-199.566
2.82468e+06	-85.1489	199.119	16.8388	-198.406
2.83772e+06	-85.3328	197.511	16.0712	-196.856
2.85082e+06	-85.3792	195.39	15.7408	-194.755
2.86398e+06	-85.2731	193.443	15.9409	-192.785
2.8772e+06	-85.0534	191.757	16.5346	-191.043
2.89048e+06	-84.7165	190.668	17.5575	-189.858
2.90382e+06	-84.582	190.35	17.9731	-189.5
2.91723e+06	-84.7007	189.897	17.5387	-189.086
2.93069e+06	-84.8505	188.837	16.9491	-188.075
2.94422e+06	-84.9058	187.146	16.6174	-186.407
2.95781e+06	-84.8843	185.829	16.57	-185.089
2.97146e+06	-84.8901	184.735	16.4538	-184.001
2.98518e+06	-84.9391	183.561	16.1928	-182.845
2.99896e+06	-84.9552	182.058	16.0091	-181.353
3.0128e+06	-85.053	180.4	15.5567	-179.728
3.0267e+06	-85.1305	178.789	15.1766	-178.143
3.04068e+06	-85.1476	176.925	14.9661	-176.291
3.05471e+06	-85.0683	174.774	15.0251	-174.127
3.06881e+06	-84.763	172.934	15.7845	-172.212
3.08298e+06	-84.4301	171.749	16.6699	-170.938
3.09721e+06	-84.4475	170.5	16.497	-169.7
3.1115e+06	-84.6058	168.534	15.8436	-167.788
3.12586e+06	-84.7225	165.986	15.2673	-165.282
3.14029e+06	-84.6792	162.761	15.0931	-162.059
3.15479e+06	-84.3598	159.118	15.6383	-158.348
3.16935e+06	-83.5916	155.221	17.3248	-154.251
3.18398e+06	-82.2876	151.628	20.3485	-150.256
3.19867e+06	-80.4788	149.114	24.6653	-147.06
3.21344e+06	-78.1328	147.665	30.3664	-144.509
3.22827e+06	-75.1335	149.848	38.4464	-144.832
3.24317e+06	-73.4874	157.868	44.8702	-151.357
3.25814e+06	-74.6369	165.615	43.8773	-159.697
3.27318e+06	-76.7921	167.529	38.2777	-163.097
3.28829e+06	-78.4042	164.742	33.1141	-161.38
3.30347e+06	-78.9193	160.672	30.8798	-157.677
3.31872e+06	-79.2469	157.03	29.2982	-154.273
3.33403e+06	-79.6128	151.217	27.2644	-148.739
3.34942e+06	-79.0731	142.381	26.9892	-139.8
3.36488e+06	-76.6994	131.297	30.2061	-127.775
3.38041e+06	-71.7867	117.255	36.6489	-111.381
3.39602e+06	-52.9711	97.194	58.532	-77.5931
3.41169e+06	-11.9793	183.511	179.514	-38.0891
3.42744e+06	-59.3032	343.412	175.31	-295.293
3.44326e+06	-76.5068	261.042	60.9092	-253.837
3.45915e+06	-79.0245	228.322	43.4699	-224.146
3.47512e+06	-80.4469	214.905	35.6661	-211.925
3.49116e+06	-80.6947	203.895	32.9689	-201.212
3.50728e+06	-80.2778	201.243	33.9842	-198.353
3.52347e+06	-81.672	200.782	29.0813	-198.665
3.53973e+06	-83.0155	196.381	23.8801	-194.923
3.55607e+06	-83.7459	191.414	20.8522	-190.275
3.57248e+06	-84.0358	187.85	19.5189	-186.834
3.58897e+06	-84.4099	184.881	18.0095	-184.002
3.60554e+06	-84.8257	181.971	16.4112	-181.229
3.62218e+06	-85.1502	179.027	15.1357	-178.386
3.6389e+06	-85.3181	175.727	14.3435	-175.141
